T644C 000:006.021   SEGGER J-Link V7.80c Log File
T644C 000:006.180   DLL Compiled: Sep 27 2022 16:01:16
T644C 000:006.193   Logging started @ 2023-12-12 07:03
T644C 000:006.204 - 6.209ms
T644C 000:006.220 JLINK_SetWarnOutHandler(...)
T644C 000:006.232 - 0.017ms
T644C 000:006.244 JLINK_OpenEx(...)
T644C 000:009.518   Firmware: J-Link OB-STM32F072-CortexM compiled May  6 2021 15:30:00
T644C 000:010.439   Firmware: J-Link OB-STM32F072-CortexM compiled May  6 2021 15:30:00
T644C 000:010.605   Decompressing FW timestamp took 119 us
T644C 000:018.118   Hardware: V1.00
T644C 000:018.158   S/N: 12345678
T644C 000:018.174   OEM: SEGGER
T644C 000:018.190   Feature(s): JFlash, JFlashBP, JFlashDL, GDB
T644C 000:021.451   TELNET listener socket opened on port 19021
T644C 000:021.646   WEBSRV WEBSRV_Init(): Starting webserver thread(s)
T644C 000:021.797   WEBSRV Webserver running on local port 19080
T644C 000:033.863 - 27.653ms returns "O.K."
T644C 000:033.927 JLINK_GetEmuCaps()
T644C 000:033.938 - 0.017ms returns 0xB8EA5A33
T644C 000:033.952 JLINK_TIF_GetAvailable(...)
T644C 000:034.523 - 0.585ms
T644C 000:034.547 JLINK_SetErrorOutHandler(...)
T644C 000:034.558 - 0.016ms
T644C 000:034.588 JLINK_ExecCommand("ProjectFile = "F:\0-GitHub\Customer project\customer_projects\ING_2P4G_SDK\ING_BLE_2P4G_example\JLinkSettings.ini"", ...). 
T644C 000:044.383   Ref file found at: D:\Keil_V5.36\ARM\Segger\JLinkDevices.ref
T644C 000:044.535   REF file references invalid XML file: D:\Program Files\SEGGER\JLink\JLinkDevices.xml
T644C 000:046.874   Device "CORTEX-M4" selected.
T644C 000:047.260 - 12.681ms returns 0x00
T644C 000:048.884 JLINK_ExecCommand("Device = ING91600", ...). 
T644C 000:050.760   Device "CORTEX-M4" selected.
T644C 000:053.497 - 4.596ms returns 0x00
T644C 000:053.523 JLINK_ExecCommand("DisableConnectionTimeout", ...). 
T644C 000:053.537 - 0.006ms returns 0x01
T644C 000:053.550 JLINK_GetHardwareVersion()
T644C 000:053.561 - 0.016ms returns 10000
T644C 000:053.573 JLINK_GetDLLVersion()
T644C 000:053.583 - 0.016ms returns 78003
T644C 000:053.595 JLINK_GetOEMString(...)
T644C 000:053.613 JLINK_GetFirmwareString(...)
T644C 000:053.624 - 0.016ms
T644C 000:057.944 JLINK_GetDLLVersion()
T644C 000:057.975 - 0.037ms returns 78003
T644C 000:057.988 JLINK_GetCompileDateTime()
T644C 000:057.998 - 0.016ms
T644C 000:059.308 JLINK_GetFirmwareString(...)
T644C 000:059.355 - 0.054ms
T644C 000:060.995 JLINK_GetHardwareVersion()
T644C 000:061.026 - 0.036ms returns 10000
T644C 000:062.487 JLINK_GetSN()
T644C 000:062.508 - 0.026ms returns 12345678
T644C 000:063.759 JLINK_GetOEMString(...)
T644C 000:065.987 JLINK_TIF_Select(JLINKARM_TIF_SWD)
T644C 000:068.194 - 2.215ms returns 0x00
T644C 000:068.210 JLINK_HasError()
T644C 000:068.233 JLINK_SetSpeed(5000)
T644C 000:068.590 - 0.363ms
T644C 000:068.604 JLINK_GetId()
T644C 000:071.674   Found SW-DP with ID 0x2BA01477
T644C 000:081.823   Old FW that does not support reading DPIDR via DAP jobs
T644C 000:093.966   DPv0 detected
T644C 000:095.288   CoreSight SoC-400 or earlier
T644C 000:096.489   Scanning AP map to find all available APs
T644C 000:104.949   AP[1]: Stopped AP scan as end of AP map has been reached
T644C 000:107.185   AP[0]: AHB-AP (IDR: 0x24770011)
T644C 000:108.684   Iterating through AP map to find AHB-AP to use
T644C 000:121.818   AP[0]: Core found
T644C 000:123.184   AP[0]: AHB-AP ROM base: 0xE00FF000
T644C 000:130.471   CPUID register: 0x410FC241. Implementer code: 0x41 (ARM)
T644C 000:131.861   Found Cortex-M4 r0p1, Little endian.
T644C 000:234.016   -- Max. mem block: 0x000020F0
T644C 000:234.429   CPU_ReadMem(4 bytes @ 0xE000EDF0)
T644C 000:235.233   CPU_WriteMem(4 bytes @ 0xE000EDF0)
T644C 000:236.157   CPU_ReadMem(4 bytes @ 0xE0002000)
T644C 000:238.485   FPUnit: 6 code (BP) slots and 2 literal slots
T644C 000:238.509   CPU_ReadMem(4 bytes @ 0xE000EDFC)
T644C 000:239.339   CPU_WriteMem(4 bytes @ 0xE000EDFC)
T644C 000:240.173   CPU_ReadMem(4 bytes @ 0xE0001000)
T644C 000:241.044   CPU_WriteMem(4 bytes @ 0xE0001000)
T644C 000:241.915   CPU_ReadMem(4 bytes @ 0xE000ED88)
T644C 000:242.643   CPU_WriteMem(4 bytes @ 0xE000ED88)
T644C 000:243.521   CPU_ReadMem(4 bytes @ 0xE000ED88)
T644C 000:244.445   CPU_WriteMem(4 bytes @ 0xE000ED88)
T644C 000:247.460   CoreSight components:
T644C 000:248.826   ROMTbl[0] @ E00FF000
T644C 000:248.851   CPU_ReadMem(64 bytes @ 0xE00FF000)
T644C 000:250.458   CPU_ReadMem(32 bytes @ 0xE000EFE0)
T644C 000:252.740   [0][0]: E000E000 CID B105E00D PID 000BB00C SCS-M7
T644C 000:252.763   CPU_ReadMem(32 bytes @ 0xE0001FE0)
T644C 000:255.122   [0][1]: E0001000 CID B105E00D PID 003BB002 DWT
T644C 000:255.145   CPU_ReadMem(32 bytes @ 0xE0002FE0)
T644C 000:257.443   [0][2]: E0002000 CID B105E00D PID 002BB003 FPB
T644C 000:257.465   CPU_ReadMem(32 bytes @ 0xE0000FE0)
T644C 000:259.933   [0][3]: E0000000 CID B105E00D PID 003BB001 ITM
T644C 000:259.971   CPU_ReadMem(32 bytes @ 0xE0040FE0)
T644C 000:262.537   [0][4]: E0040000 CID B105900D PID 000BB9A1 TPIU
T644C 000:263.812 - 195.220ms returns 0x2BA01477
T644C 000:263.838 JLINK_GetDLLVersion()
T644C 000:263.849 - 0.016ms returns 78003
T644C 000:263.861 JLINK_CORE_GetFound()
T644C 000:263.872 - 0.016ms returns 0xE0000FF
T644C 000:263.885 JLINK_GetDebugInfo(0x100 = JLINKARM_ROM_TABLE_ADDR_INDEX)
T644C 000:263.899   Value=0xE00FF000
T644C 000:263.915 - 0.035ms returns 0
T644C 000:265.191 JLINK_GetDebugInfo(0x100 = JLINKARM_ROM_TABLE_ADDR_INDEX)
T644C 000:265.208   Value=0xE00FF000
T644C 000:265.224 - 0.038ms returns 0
T644C 000:265.236 JLINK_GetDebugInfo(0x101 = JLINKARM_DEBUG_INFO_ETM_ADDR_INDEX)
T644C 000:265.246   Value=0x00000000
T644C 000:265.262 - 0.032ms returns 0
T644C 000:265.283 JLINK_ReadMemEx(0xE0041FF0, 0x10 Bytes, Flags = 0x02000004)
T644C 000:265.318   CPU_ReadMem(16 bytes @ 0xE0041FF0)
T644C 000:266.148   Data:  00 00 00 00 00 00 00 00 00 00 00 00 00 00 00 00
T644C 000:266.165 - 0.887ms returns 16 (0x10)
T644C 000:266.178 JLINK_GetDebugInfo(0x102 = JLINKARM_DEBUG_INFO_MTB_ADDR_INDEX)
T644C 000:266.189   Value=0x00000000
T644C 000:266.204 - 0.031ms returns 0
T644C 000:266.216 JLINK_GetDebugInfo(0x103 = JLINKARM_DEBUG_INFO_TPIU_ADDR_INDEX)
T644C 000:266.227   Value=0xE0040000
T644C 000:266.242 - 0.031ms returns 0
T644C 000:266.253 JLINK_GetDebugInfo(0x104 = JLINKARM_DEBUG_INFO_ITM_ADDR_INDEX)
T644C 000:266.264   Value=0xE0000000
T644C 000:266.280 - 0.031ms returns 0
T644C 000:266.291 JLINK_GetDebugInfo(0x105 = JLINKARM_DEBUG_INFO_DWT_ADDR_INDEX)
T644C 000:266.302   Value=0xE0001000
T644C 000:266.317 - 0.031ms returns 0
T644C 000:266.329 JLINK_GetDebugInfo(0x106 = JLINKARM_DEBUG_INFO_FPB_ADDR_INDEX)
T644C 000:266.340   Value=0xE0002000
T644C 000:266.355 - 0.031ms returns 0
T644C 000:266.367 JLINK_GetDebugInfo(0x107 = JLINKARM_DEBUG_INFO_NVIC_ADDR_INDEX)
T644C 000:266.377   Value=0xE000E000
T644C 000:266.393 - 0.031ms returns 0
T644C 000:266.404 JLINK_GetDebugInfo(0x10C = JLINKARM_DEBUG_INFO_DBG_ADDR_INDEX)
T644C 000:266.415   Value=0xE000EDF0
T644C 000:266.430 - 0.031ms returns 0
T644C 000:266.442 JLINK_GetDebugInfo(0x01 = Unknown)
T644C 000:266.453   Value=0x00000001
T644C 000:266.468 - 0.031ms returns 0
T644C 000:266.480 JLINK_ReadMemU32(0xE000ED00, 0x1 Items)
T644C 000:266.493   CPU_ReadMem(4 bytes @ 0xE000ED00)
T644C 000:267.333   Data:  41 C2 0F 41
T644C 000:267.353   Debug reg: CPUID
T644C 000:267.369 - 0.894ms returns 1 (0x1)
T644C 000:267.381 JLINK_GetDebugInfo(0x10F = JLINKARM_DEBUG_INFO_HAS_CORTEX_M_SECURITY_EXT_INDEX)
T644C 000:267.392   Value=0x00000000
T644C 000:267.408 - 0.032ms returns 0
T644C 000:267.420 JLINK_HasError()
T644C 000:267.432 JLINK_SetResetType(JLINKARM_CM3_RESET_TYPE_NORMAL)
T644C 000:267.443 - 0.016ms returns JLINKARM_CM3_RESET_TYPE_NORMAL
T644C 000:267.454 JLINK_Reset()
T644C 000:267.478   CPU is running
T644C 000:267.495   CPU_WriteMem(4 bytes @ 0xE000EDF0)
T644C 000:268.334   CPU is running
T644C 000:268.351   CPU_WriteMem(4 bytes @ 0xE000EDFC)
T644C 000:270.358   Reset: Halt core after reset via DEMCR.VC_CORERESET.
T644C 000:272.941   Reset: Reset device via AIRCR.SYSRESETREQ.
T644C 000:272.969   CPU is running
T644C 000:272.986   CPU_WriteMem(4 bytes @ 0xE000ED0C)
T644C 000:326.672   CPU_ReadMem(4 bytes @ 0xE000EDF0)
T644C 000:327.426   CPU_ReadMem(4 bytes @ 0xE000EDF0)
T644C 000:328.333   CPU is running
T644C 000:328.404   CPU_WriteMem(4 bytes @ 0xE000EDF0)
T644C 000:329.285   CPU is running
T644C 000:329.303   CPU_WriteMem(4 bytes @ 0xE000EDFC)
T644C 000:336.305   CPU_ReadMem(4 bytes @ 0xE000EDF0)
T644C 000:342.241   CPU_WriteMem(4 bytes @ 0xE0002000)
T644C 000:343.141   CPU_ReadMem(4 bytes @ 0xE000EDFC)
T644C 000:344.038   CPU_ReadMem(4 bytes @ 0xE0001000)
T644C 000:344.938 - 77.532ms
T644C 000:345.003 JLINK_Halt()
T644C 000:345.014 - 0.016ms returns 0x00
T644C 000:345.108 JLINK_ReadMemU32(0xE000EDF0, 0x1 Items)
T644C 000:345.127   CPU_ReadMem(4 bytes @ 0xE000EDF0)
T644C 000:346.036   Data:  03 00 03 00
T644C 000:346.053   Debug reg: DHCSR
T644C 000:346.069 - 0.965ms returns 1 (0x1)
T644C 000:346.091 JLINK_WriteU32_64(0xE000EDF0, 0xA05F0003)
T644C 000:346.103   Debug reg: DHCSR
T644C 000:346.320   CPU_WriteMem(4 bytes @ 0xE000EDF0)
T644C 000:347.264 - 1.178ms returns 0 (0x00000000)
T644C 000:347.277 JLINK_WriteU32_64(0xE000EDFC, 0x01000000)
T644C 000:347.288   Debug reg: DEMCR
T644C 000:347.306   CPU_WriteMem(4 bytes @ 0xE000EDFC)
T644C 000:348.169 - 0.898ms returns 0 (0x00000000)
T644C 000:354.315 JLINK_GetHWStatus(...)
T644C 000:354.992 - 0.691ms returns 0
T644C 000:358.481 JLINK_GetNumBPUnits(Type = 0xFFFFFF00)
T644C 000:358.512 - 0.036ms returns 0x06
T644C 000:358.523 JLINK_GetNumBPUnits(Type = 0xF0)
T644C 000:358.534 - 0.015ms returns 0x2000
T644C 000:358.545 JLINK_GetNumWPUnits()
T644C 000:358.556 - 0.015ms returns 4
T644C 000:362.116 JLINK_GetSpeed()
T644C 000:362.144 - 0.033ms returns 2000
T644C 000:364.305 JLINK_ReadMemU32(0xE000E004, 0x1 Items)
T644C 000:364.339   CPU_ReadMem(4 bytes @ 0xE000E004)
T644C 000:365.270   Data:  01 00 00 00
T644C 000:365.287 - 0.987ms returns 1 (0x1)
T644C 000:365.299 JLINK_ReadMemU32(0xE000E004, 0x1 Items)
T644C 000:365.312   CPU_ReadMem(4 bytes @ 0xE000E004)
T644C 000:366.180   Data:  01 00 00 00
T644C 000:366.197 - 0.903ms returns 1 (0x1)
T644C 000:366.209 JLINK_WriteMemEx(0xE0001000, 0x0000001C Bytes, Flags = 0x02000004)
T644C 000:366.220   Data:  01 00 00 00 00 00 00 00 00 00 00 00 00 00 00 00 ...
T644C 000:366.241   CPU_WriteMem(28 bytes @ 0xE0001000)
T644C 000:367.395 - 1.199ms returns 0x1C
T644C 000:367.421 JLINK_Halt()
T644C 000:367.432 - 0.016ms returns 0x00
T644C 000:367.443 JLINK_IsHalted()
T644C 000:367.455 - 0.016ms returns TRUE
T644C 000:370.614 JLINK_WriteMem(0x20000000, 0xA0 Bytes, ...)
T644C 000:370.637   Data:  00 BE 0A E0 0D 78 2D 06 68 40 08 24 40 00 00 D3 ...
T644C 000:370.837   CPU_WriteMem(160 bytes @ 0x20000000)
T644C 000:373.379 - 2.781ms returns 0xA0
T644C 000:373.428 JLINK_HasError()
T644C 000:373.442 JLINK_WriteReg(R0, 0x02000000)
T644C 000:373.456 - 0.019ms returns 0
T644C 000:373.467 JLINK_WriteReg(R1, 0x00C35000)
T644C 000:373.479 - 0.016ms returns 0
T644C 000:373.490 JLINK_WriteReg(R2, 0x00000001)
T644C 000:373.501 - 0.016ms returns 0
T644C 000:373.512 JLINK_WriteReg(R3, 0x00000000)
T644C 000:373.524 - 0.016ms returns 0
T644C 000:373.535 JLINK_WriteReg(R4, 0x00000000)
T644C 000:373.546 - 0.016ms returns 0
T644C 000:373.558 JLINK_WriteReg(R5, 0x00000000)
T644C 000:373.568 - 0.016ms returns 0
T644C 000:373.580 JLINK_WriteReg(R6, 0x00000000)
T644C 000:373.590 - 0.016ms returns 0
T644C 000:373.602 JLINK_WriteReg(R7, 0x00000000)
T644C 000:373.613 - 0.016ms returns 0
T644C 000:373.624 JLINK_WriteReg(R8, 0x00000000)
T644C 000:373.649 - 0.029ms returns 0
T644C 000:373.660 JLINK_WriteReg(R9, 0x2000009C)
T644C 000:373.671 - 0.016ms returns 0
T644C 000:373.683 JLINK_WriteReg(R10, 0x00000000)
T644C 000:373.694 - 0.016ms returns 0
T644C 000:373.705 JLINK_WriteReg(R11, 0x00000000)
T644C 000:373.716 - 0.016ms returns 0
T644C 000:373.727 JLINK_WriteReg(R12, 0x00000000)
T644C 000:373.738 - 0.016ms returns 0
T644C 000:373.750 JLINK_WriteReg(R13 (SP), 0x20008000)
T644C 000:373.765 - 0.020ms returns 0
T644C 000:373.777 JLINK_WriteReg(R14, 0x20000001)
T644C 000:373.788 - 0.016ms returns 0
T644C 000:373.799 JLINK_WriteReg(R15 (PC), 0x2000006C)
T644C 000:373.814 - 0.019ms returns 0
T644C 000:373.826 JLINK_WriteReg(XPSR, 0x01000000)
T644C 000:373.837 - 0.016ms returns 0
T644C 000:373.848 JLINK_WriteReg(MSP, 0x20008000)
T644C 000:373.859 - 0.016ms returns 0
T644C 000:373.870 JLINK_WriteReg(PSP, 0x20008000)
T644C 000:373.882 - 0.016ms returns 0
T644C 000:373.893 JLINK_WriteReg(CFBP, 0x00000000)
T644C 000:373.904 - 0.016ms returns 0
T644C 000:373.916 JLINK_SetBPEx(Addr = 0x20000000, Type = 0xFFFFFFF2)
T644C 000:373.933   CPU_ReadMem(4 bytes @ 0x20000000)
T644C 000:374.765   CPU_WriteMem(4 bytes @ 0x20000000)
T644C 000:375.530   CPU_ReadMem(4 bytes @ 0x20000000)
T644C 000:376.454   CPU_WriteMem(4 bytes @ 0x20000000)
T644C 000:377.398   CPU_ReadMem(2 bytes @ 0x20000000)
T644C 000:378.227 - 4.320ms returns 0x00000001
T644C 000:378.245 JLINK_Go()
T644C 000:378.260   CPU_WriteMem(2 bytes @ 0x20000000)
T644C 000:379.056   CPU_ReadMem(4 bytes @ 0xE0001000)
T644C 000:379.890   CPU_WriteMem(4 bytes @ 0xE0002008)
T644C 000:379.907   CPU_WriteMem(4 bytes @ 0xE000200C)
T644C 000:379.923   CPU_WriteMem(4 bytes @ 0xE0002010)
T644C 000:379.939   CPU_WriteMem(4 bytes @ 0xE0002014)
T644C 000:379.956   CPU_WriteMem(4 bytes @ 0xE0002018)
T644C 000:379.971   CPU_WriteMem(4 bytes @ 0xE000201C)
T644C 000:382.863   CPU_WriteMem(4 bytes @ 0xE0001004)
T644C 000:389.007 - 10.788ms
T644C 000:389.042 JLINK_IsHalted()
T644C 000:394.191   CPU_ReadMem(2 bytes @ 0x20000000)
T644C 000:395.073 - 6.051ms returns TRUE
T644C 000:395.102 JLINK_ReadReg(R15 (PC))
T644C 000:395.116 - 0.020ms returns 0x20000000
T644C 000:395.128 JLINK_ClrBPEx(BPHandle = 0x00000001)
T644C 000:395.139 - 0.016ms returns 0x00
T644C 000:395.151 JLINK_ReadReg(R0)
T644C 000:395.162 - 0.016ms returns 0x00000000
T644C 000:395.534 JLINK_HasError()
T644C 000:395.563 JLINK_WriteReg(R0, 0x0202A000)
T644C 000:395.576 - 0.019ms returns 0
T644C 000:395.588 JLINK_WriteReg(R1, 0x00001000)
T644C 000:395.599 - 0.016ms returns 0
T644C 000:395.611 JLINK_WriteReg(R2, 0x000000FF)
T644C 000:395.622 - 0.016ms returns 0
T644C 000:395.634 JLINK_WriteReg(R3, 0x00000000)
T644C 000:395.645 - 0.016ms returns 0
T644C 000:395.656 JLINK_WriteReg(R4, 0x00000000)
T644C 000:395.667 - 0.016ms returns 0
T644C 000:395.678 JLINK_WriteReg(R5, 0x00000000)
T644C 000:395.689 - 0.016ms returns 0
T644C 000:395.700 JLINK_WriteReg(R6, 0x00000000)
T644C 000:395.711 - 0.016ms returns 0
T644C 000:395.723 JLINK_WriteReg(R7, 0x00000000)
T644C 000:395.734 - 0.016ms returns 0
T644C 000:395.745 JLINK_WriteReg(R8, 0x00000000)
T644C 000:395.757 - 0.017ms returns 0
T644C 000:395.769 JLINK_WriteReg(R9, 0x2000009C)
T644C 000:395.779 - 0.016ms returns 0
T644C 000:395.791 JLINK_WriteReg(R10, 0x00000000)
T644C 000:395.802 - 0.016ms returns 0
T644C 000:395.813 JLINK_WriteReg(R11, 0x00000000)
T644C 000:395.824 - 0.016ms returns 0
T644C 000:395.835 JLINK_WriteReg(R12, 0x00000000)
T644C 000:395.847 - 0.016ms returns 0
T644C 000:395.858 JLINK_WriteReg(R13 (SP), 0x20008000)
T644C 000:395.870 - 0.017ms returns 0
T644C 000:395.881 JLINK_WriteReg(R14, 0x20000001)
T644C 000:395.892 - 0.016ms returns 0
T644C 000:395.903 JLINK_WriteReg(R15 (PC), 0x20000020)
T644C 000:395.915 - 0.016ms returns 0
T644C 000:395.926 JLINK_WriteReg(XPSR, 0x01000000)
T644C 000:395.937 - 0.016ms returns 0
T644C 000:395.948 JLINK_WriteReg(MSP, 0x20008000)
T644C 000:395.959 - 0.016ms returns 0
T644C 000:395.971 JLINK_WriteReg(PSP, 0x20008000)
T644C 000:395.982 - 0.016ms returns 0
T644C 000:395.993 JLINK_WriteReg(CFBP, 0x00000000)
T644C 000:396.004 - 0.016ms returns 0
T644C 000:396.015 JLINK_SetBPEx(Addr = 0x20000000, Type = 0xFFFFFFF2)
T644C 000:396.027 - 0.017ms returns 0x00000002
T644C 000:396.039 JLINK_Go()
T644C 000:396.056   CPU_ReadMem(4 bytes @ 0xE0001000)
T644C 000:401.986 - 5.966ms
T644C 000:402.018 JLINK_IsHalted()
T644C 000:407.087   CPU_ReadMem(2 bytes @ 0x20000000)
T644C 000:407.965 - 5.953ms returns TRUE
T644C 000:407.980 JLINK_ReadReg(R15 (PC))
T644C 000:407.993 - 0.018ms returns 0x20000000
T644C 000:408.005 JLINK_ClrBPEx(BPHandle = 0x00000002)
T644C 000:408.017 - 0.016ms returns 0x00
T644C 000:408.029 JLINK_ReadReg(R0)
T644C 000:408.040 - 0.016ms returns 0x00000001
T644C 000:408.053 JLINK_HasError()
T644C 000:408.066 JLINK_WriteReg(R0, 0x0202A000)
T644C 000:408.077 - 0.016ms returns 0
T644C 000:408.090 JLINK_WriteReg(R1, 0x00001000)
T644C 000:408.101 - 0.016ms returns 0
T644C 000:408.113 JLINK_WriteReg(R2, 0x000000FF)
T644C 000:408.124 - 0.016ms returns 0
T644C 000:408.136 JLINK_WriteReg(R3, 0x00000000)
T644C 000:408.147 - 0.016ms returns 0
T644C 000:408.159 JLINK_WriteReg(R4, 0x00000000)
T644C 000:408.170 - 0.016ms returns 0
T644C 000:408.182 JLINK_WriteReg(R5, 0x00000000)
T644C 000:408.193 - 0.016ms returns 0
T644C 000:408.205 JLINK_WriteReg(R6, 0x00000000)
T644C 000:408.216 - 0.016ms returns 0
T644C 000:408.228 JLINK_WriteReg(R7, 0x00000000)
T644C 000:408.239 - 0.016ms returns 0
T644C 000:408.251 JLINK_WriteReg(R8, 0x00000000)
T644C 000:408.262 - 0.016ms returns 0
T644C 000:408.274 JLINK_WriteReg(R9, 0x2000009C)
T644C 000:408.285 - 0.016ms returns 0
T644C 000:408.296 JLINK_WriteReg(R10, 0x00000000)
T644C 000:408.307 - 0.016ms returns 0
T644C 000:408.350 JLINK_WriteReg(R11, 0x00000000)
T644C 000:408.362 - 0.017ms returns 0
T644C 000:408.373 JLINK_WriteReg(R12, 0x00000000)
T644C 000:408.384 - 0.016ms returns 0
T644C 000:408.396 JLINK_WriteReg(R13 (SP), 0x20008000)
T644C 000:408.407 - 0.016ms returns 0
T644C 000:408.418 JLINK_WriteReg(R14, 0x20000001)
T644C 000:408.429 - 0.016ms returns 0
T644C 000:408.440 JLINK_WriteReg(R15 (PC), 0x2000007A)
T644C 000:408.451 - 0.016ms returns 0
T644C 000:408.462 JLINK_WriteReg(XPSR, 0x01000000)
T644C 000:408.477 - 0.019ms returns 0
T644C 000:408.488 JLINK_WriteReg(MSP, 0x20008000)
T644C 000:408.499 - 0.016ms returns 0
T644C 000:408.510 JLINK_WriteReg(PSP, 0x20008000)
T644C 000:408.521 - 0.016ms returns 0
T644C 000:408.533 JLINK_WriteReg(CFBP, 0x00000000)
T644C 000:408.544 - 0.016ms returns 0
T644C 000:408.555 JLINK_SetBPEx(Addr = 0x20000000, Type = 0xFFFFFFF2)
T644C 000:408.566 - 0.016ms returns 0x00000003
T644C 000:408.578 JLINK_Go()
T644C 000:408.593   CPU_ReadMem(4 bytes @ 0xE0001000)
T644C 000:414.404 - 5.843ms
T644C 000:414.432 JLINK_IsHalted()
T644C 000:419.480   CPU_ReadMem(2 bytes @ 0x20000000)
T644C 000:420.245 - 5.819ms returns TRUE
T644C 000:420.261 JLINK_ReadReg(R15 (PC))
T644C 000:420.275 - 0.019ms returns 0x20000000
T644C 000:420.287 JLINK_ClrBPEx(BPHandle = 0x00000003)
T644C 000:420.298 - 0.016ms returns 0x00
T644C 000:420.310 JLINK_ReadReg(R0)
T644C 000:420.321 - 0.016ms returns 0x00000000
T644C 000:420.707 JLINK_HasError()
T644C 000:420.724 JLINK_WriteReg(R0, 0x0202B000)
T644C 000:420.737 - 0.018ms returns 0
T644C 000:420.749 JLINK_WriteReg(R1, 0x00001000)
T644C 000:420.760 - 0.016ms returns 0
T644C 000:420.771 JLINK_WriteReg(R2, 0x000000FF)
T644C 000:420.782 - 0.016ms returns 0
T644C 000:420.793 JLINK_WriteReg(R3, 0x00000000)
T644C 000:420.804 - 0.016ms returns 0
T644C 000:420.816 JLINK_WriteReg(R4, 0x00000000)
T644C 000:420.827 - 0.016ms returns 0
T644C 000:420.838 JLINK_WriteReg(R5, 0x00000000)
T644C 000:420.849 - 0.016ms returns 0
T644C 000:420.860 JLINK_WriteReg(R6, 0x00000000)
T644C 000:420.871 - 0.016ms returns 0
T644C 000:420.883 JLINK_WriteReg(R7, 0x00000000)
T644C 000:420.894 - 0.016ms returns 0
T644C 000:420.905 JLINK_WriteReg(R8, 0x00000000)
T644C 000:420.916 - 0.016ms returns 0
T644C 000:420.927 JLINK_WriteReg(R9, 0x2000009C)
T644C 000:420.938 - 0.016ms returns 0
T644C 000:420.950 JLINK_WriteReg(R10, 0x00000000)
T644C 000:420.961 - 0.016ms returns 0
T644C 000:420.972 JLINK_WriteReg(R11, 0x00000000)
T644C 000:420.983 - 0.016ms returns 0
T644C 000:420.994 JLINK_WriteReg(R12, 0x00000000)
T644C 000:421.005 - 0.016ms returns 0
T644C 000:421.016 JLINK_WriteReg(R13 (SP), 0x20008000)
T644C 000:421.031 - 0.022ms returns 0
T644C 000:421.045 JLINK_WriteReg(R14, 0x20000001)
T644C 000:421.056 - 0.016ms returns 0
T644C 000:421.067 JLINK_WriteReg(R15 (PC), 0x20000020)
T644C 000:421.078 - 0.016ms returns 0
T644C 000:421.090 JLINK_WriteReg(XPSR, 0x01000000)
T644C 000:421.101 - 0.016ms returns 0
T644C 000:421.112 JLINK_WriteReg(MSP, 0x20008000)
T644C 000:421.123 - 0.016ms returns 0
T644C 000:421.134 JLINK_WriteReg(PSP, 0x20008000)
T644C 000:421.145 - 0.015ms returns 0
T644C 000:421.156 JLINK_WriteReg(CFBP, 0x00000000)
T644C 000:421.167 - 0.016ms returns 0
T644C 000:421.179 JLINK_SetBPEx(Addr = 0x20000000, Type = 0xFFFFFFF2)
T644C 000:421.191 - 0.017ms returns 0x00000004
T644C 000:421.202 JLINK_Go()
T644C 000:421.218   CPU_ReadMem(4 bytes @ 0xE0001000)
T644C 000:427.136 - 5.950ms
T644C 000:427.160 JLINK_IsHalted()
T644C 000:432.506   CPU_ReadMem(2 bytes @ 0x20000000)
T644C 000:433.455 - 6.300ms returns TRUE
T644C 000:433.473 JLINK_ReadReg(R15 (PC))
T644C 000:433.485 - 0.018ms returns 0x20000000
T644C 000:433.498 JLINK_ClrBPEx(BPHandle = 0x00000004)
T644C 000:433.509 - 0.016ms returns 0x00
T644C 000:433.521 JLINK_ReadReg(R0)
T644C 000:433.532 - 0.016ms returns 0x00000001
T644C 000:433.545 JLINK_HasError()
T644C 000:433.558 JLINK_WriteReg(R0, 0x0202B000)
T644C 000:433.569 - 0.016ms returns 0
T644C 000:433.581 JLINK_WriteReg(R1, 0x00001000)
T644C 000:433.592 - 0.016ms returns 0
T644C 000:433.604 JLINK_WriteReg(R2, 0x000000FF)
T644C 000:433.615 - 0.016ms returns 0
T644C 000:433.627 JLINK_WriteReg(R3, 0x00000000)
T644C 000:433.638 - 0.016ms returns 0
T644C 000:433.651 JLINK_WriteReg(R4, 0x00000000)
T644C 000:433.662 - 0.016ms returns 0
T644C 000:433.674 JLINK_WriteReg(R5, 0x00000000)
T644C 000:433.685 - 0.016ms returns 0
T644C 000:433.697 JLINK_WriteReg(R6, 0x00000000)
T644C 000:433.708 - 0.016ms returns 0
T644C 000:433.720 JLINK_WriteReg(R7, 0x00000000)
T644C 000:433.731 - 0.016ms returns 0
T644C 000:433.743 JLINK_WriteReg(R8, 0x00000000)
T644C 000:433.754 - 0.016ms returns 0
T644C 000:433.766 JLINK_WriteReg(R9, 0x2000009C)
T644C 000:433.777 - 0.016ms returns 0
T644C 000:433.789 JLINK_WriteReg(R10, 0x00000000)
T644C 000:433.800 - 0.016ms returns 0
T644C 000:433.812 JLINK_WriteReg(R11, 0x00000000)
T644C 000:433.823 - 0.016ms returns 0
T644C 000:433.835 JLINK_WriteReg(R12, 0x00000000)
T644C 000:433.845 - 0.016ms returns 0
T644C 000:433.857 JLINK_WriteReg(R13 (SP), 0x20008000)
T644C 000:433.869 - 0.016ms returns 0
T644C 000:433.881 JLINK_WriteReg(R14, 0x20000001)
T644C 000:433.892 - 0.016ms returns 0
T644C 000:433.904 JLINK_WriteReg(R15 (PC), 0x2000007A)
T644C 000:433.915 - 0.016ms returns 0
T644C 000:433.927 JLINK_WriteReg(XPSR, 0x01000000)
T644C 000:433.938 - 0.016ms returns 0
T644C 000:433.950 JLINK_WriteReg(MSP, 0x20008000)
T644C 000:433.961 - 0.017ms returns 0
T644C 000:433.974 JLINK_WriteReg(PSP, 0x20008000)
T644C 000:433.985 - 0.016ms returns 0
T644C 000:433.997 JLINK_WriteReg(CFBP, 0x00000000)
T644C 000:434.008 - 0.016ms returns 0
T644C 000:434.021 JLINK_SetBPEx(Addr = 0x20000000, Type = 0xFFFFFFF2)
T644C 000:434.032 - 0.016ms returns 0x00000005
T644C 000:434.044 JLINK_Go()
T644C 000:434.060   CPU_ReadMem(4 bytes @ 0xE0001000)
T644C 000:440.183 - 6.144ms
T644C 000:440.198 JLINK_IsHalted()
T644C 000:445.379   CPU_ReadMem(2 bytes @ 0x20000000)
T644C 000:446.316 - 6.129ms returns TRUE
T644C 000:446.336 JLINK_ReadReg(R15 (PC))
T644C 000:446.349 - 0.017ms returns 0x20000000
T644C 000:446.393 JLINK_ClrBPEx(BPHandle = 0x00000005)
T644C 000:446.405 - 0.017ms returns 0x00
T644C 000:446.416 JLINK_ReadReg(R0)
T644C 000:446.427 - 0.016ms returns 0x00000000
T644C 000:446.785 JLINK_HasError()
T644C 000:446.800 JLINK_WriteReg(R0, 0x0202C000)
T644C 000:446.813 - 0.017ms returns 0
T644C 000:446.824 JLINK_WriteReg(R1, 0x00001000)
T644C 000:446.835 - 0.016ms returns 0
T644C 000:446.847 JLINK_WriteReg(R2, 0x000000FF)
T644C 000:446.858 - 0.016ms returns 0
T644C 000:446.869 JLINK_WriteReg(R3, 0x00000000)
T644C 000:446.880 - 0.016ms returns 0
T644C 000:446.896 JLINK_WriteReg(R4, 0x00000000)
T644C 000:446.909 - 0.018ms returns 0
T644C 000:446.920 JLINK_WriteReg(R5, 0x00000000)
T644C 000:446.931 - 0.016ms returns 0
T644C 000:446.943 JLINK_WriteReg(R6, 0x00000000)
T644C 000:446.954 - 0.016ms returns 0
T644C 000:446.965 JLINK_WriteReg(R7, 0x00000000)
T644C 000:446.976 - 0.016ms returns 0
T644C 000:446.987 JLINK_WriteReg(R8, 0x00000000)
T644C 000:446.998 - 0.016ms returns 0
T644C 000:447.010 JLINK_WriteReg(R9, 0x2000009C)
T644C 000:447.021 - 0.016ms returns 0
T644C 000:447.032 JLINK_WriteReg(R10, 0x00000000)
T644C 000:447.043 - 0.016ms returns 0
T644C 000:447.054 JLINK_WriteReg(R11, 0x00000000)
T644C 000:447.065 - 0.016ms returns 0
T644C 000:447.077 JLINK_WriteReg(R12, 0x00000000)
T644C 000:447.088 - 0.016ms returns 0
T644C 000:447.099 JLINK_WriteReg(R13 (SP), 0x20008000)
T644C 000:447.110 - 0.016ms returns 0
T644C 000:447.122 JLINK_WriteReg(R14, 0x20000001)
T644C 000:447.133 - 0.016ms returns 0
T644C 000:447.144 JLINK_WriteReg(R15 (PC), 0x20000020)
T644C 000:447.155 - 0.016ms returns 0
T644C 000:447.166 JLINK_WriteReg(XPSR, 0x01000000)
T644C 000:447.177 - 0.016ms returns 0
T644C 000:447.189 JLINK_WriteReg(MSP, 0x20008000)
T644C 000:447.200 - 0.016ms returns 0
T644C 000:447.211 JLINK_WriteReg(PSP, 0x20008000)
T644C 000:447.222 - 0.016ms returns 0
T644C 000:447.233 JLINK_WriteReg(CFBP, 0x00000000)
T644C 000:447.244 - 0.016ms returns 0
T644C 000:447.256 JLINK_SetBPEx(Addr = 0x20000000, Type = 0xFFFFFFF2)
T644C 000:447.267 - 0.016ms returns 0x00000006
T644C 000:447.279 JLINK_Go()
T644C 000:447.295   CPU_ReadMem(4 bytes @ 0xE0001000)
T644C 000:453.334 - 6.062ms
T644C 000:453.347 JLINK_IsHalted()
T644C 000:458.524   CPU_ReadMem(2 bytes @ 0x20000000)
T644C 000:459.348 - 6.014ms returns TRUE
T644C 000:459.369 JLINK_ReadReg(R15 (PC))
T644C 000:459.382 - 0.018ms returns 0x20000000
T644C 000:459.394 JLINK_ClrBPEx(BPHandle = 0x00000006)
T644C 000:459.405 - 0.016ms returns 0x00
T644C 000:459.417 JLINK_ReadReg(R0)
T644C 000:459.428 - 0.016ms returns 0x00000001
T644C 000:459.440 JLINK_HasError()
T644C 000:459.451 JLINK_WriteReg(R0, 0x0202C000)
T644C 000:459.463 - 0.016ms returns 0
T644C 000:459.474 JLINK_WriteReg(R1, 0x00001000)
T644C 000:459.485 - 0.016ms returns 0
T644C 000:459.496 JLINK_WriteReg(R2, 0x000000FF)
T644C 000:459.507 - 0.016ms returns 0
T644C 000:459.519 JLINK_WriteReg(R3, 0x00000000)
T644C 000:459.529 - 0.016ms returns 0
T644C 000:459.541 JLINK_WriteReg(R4, 0x00000000)
T644C 000:459.551 - 0.016ms returns 0
T644C 000:459.563 JLINK_WriteReg(R5, 0x00000000)
T644C 000:459.574 - 0.016ms returns 0
T644C 000:459.585 JLINK_WriteReg(R6, 0x00000000)
T644C 000:459.596 - 0.016ms returns 0
T644C 000:459.607 JLINK_WriteReg(R7, 0x00000000)
T644C 000:459.618 - 0.016ms returns 0
T644C 000:459.629 JLINK_WriteReg(R8, 0x00000000)
T644C 000:459.640 - 0.016ms returns 0
T644C 000:459.651 JLINK_WriteReg(R9, 0x2000009C)
T644C 000:459.662 - 0.016ms returns 0
T644C 000:459.674 JLINK_WriteReg(R10, 0x00000000)
T644C 000:459.684 - 0.016ms returns 0
T644C 000:459.696 JLINK_WriteReg(R11, 0x00000000)
T644C 000:459.707 - 0.016ms returns 0
T644C 000:459.718 JLINK_WriteReg(R12, 0x00000000)
T644C 000:459.729 - 0.016ms returns 0
T644C 000:459.740 JLINK_WriteReg(R13 (SP), 0x20008000)
T644C 000:459.751 - 0.016ms returns 0
T644C 000:459.763 JLINK_WriteReg(R14, 0x20000001)
T644C 000:459.774 - 0.016ms returns 0
T644C 000:459.785 JLINK_WriteReg(R15 (PC), 0x2000007A)
T644C 000:459.796 - 0.016ms returns 0
T644C 000:459.807 JLINK_WriteReg(XPSR, 0x01000000)
T644C 000:459.818 - 0.016ms returns 0
T644C 000:459.829 JLINK_WriteReg(MSP, 0x20008000)
T644C 000:459.840 - 0.016ms returns 0
T644C 000:459.851 JLINK_WriteReg(PSP, 0x20008000)
T644C 000:459.862 - 0.016ms returns 0
T644C 000:459.874 JLINK_WriteReg(CFBP, 0x00000000)
T644C 000:459.885 - 0.016ms returns 0
T644C 000:459.896 JLINK_SetBPEx(Addr = 0x20000000, Type = 0xFFFFFFF2)
T644C 000:459.907 - 0.016ms returns 0x00000007
T644C 000:459.919 JLINK_Go()
T644C 000:459.933   CPU_ReadMem(4 bytes @ 0xE0001000)
T644C 000:466.058 - 6.159ms
T644C 000:466.086 JLINK_IsHalted()
T644C 000:471.459   CPU_ReadMem(2 bytes @ 0x20000000)
T644C 000:472.423 - 6.368ms returns TRUE
T644C 000:472.467 JLINK_ReadReg(R15 (PC))
T644C 000:472.482 - 0.020ms returns 0x20000000
T644C 000:472.541 JLINK_ClrBPEx(BPHandle = 0x00000007)
T644C 000:472.554 - 0.019ms returns 0x00
T644C 000:472.566 JLINK_ReadReg(R0)
T644C 000:472.577 - 0.016ms returns 0x00000000
T644C 000:472.912 JLINK_HasError()
T644C 000:472.927 JLINK_WriteReg(R0, 0x0202D000)
T644C 000:472.939 - 0.017ms returns 0
T644C 000:472.950 JLINK_WriteReg(R1, 0x00001000)
T644C 000:472.961 - 0.016ms returns 0
T644C 000:472.972 JLINK_WriteReg(R2, 0x000000FF)
T644C 000:472.983 - 0.016ms returns 0
T644C 000:472.995 JLINK_WriteReg(R3, 0x00000000)
T644C 000:473.006 - 0.016ms returns 0
T644C 000:473.017 JLINK_WriteReg(R4, 0x00000000)
T644C 000:473.028 - 0.016ms returns 0
T644C 000:473.039 JLINK_WriteReg(R5, 0x00000000)
T644C 000:473.050 - 0.016ms returns 0
T644C 000:473.062 JLINK_WriteReg(R6, 0x00000000)
T644C 000:473.073 - 0.016ms returns 0
T644C 000:473.084 JLINK_WriteReg(R7, 0x00000000)
T644C 000:473.095 - 0.016ms returns 0
T644C 000:473.106 JLINK_WriteReg(R8, 0x00000000)
T644C 000:473.117 - 0.016ms returns 0
T644C 000:473.128 JLINK_WriteReg(R9, 0x2000009C)
T644C 000:473.139 - 0.016ms returns 0
T644C 000:473.150 JLINK_WriteReg(R10, 0x00000000)
T644C 000:473.161 - 0.016ms returns 0
T644C 000:473.172 JLINK_WriteReg(R11, 0x00000000)
T644C 000:473.183 - 0.016ms returns 0
T644C 000:473.194 JLINK_WriteReg(R12, 0x00000000)
T644C 000:473.205 - 0.016ms returns 0
T644C 000:473.217 JLINK_WriteReg(R13 (SP), 0x20008000)
T644C 000:473.228 - 0.016ms returns 0
T644C 000:473.239 JLINK_WriteReg(R14, 0x20000001)
T644C 000:473.250 - 0.016ms returns 0
T644C 000:473.262 JLINK_WriteReg(R15 (PC), 0x20000020)
T644C 000:473.273 - 0.016ms returns 0
T644C 000:473.285 JLINK_WriteReg(XPSR, 0x01000000)
T644C 000:473.295 - 0.016ms returns 0
T644C 000:473.307 JLINK_WriteReg(MSP, 0x20008000)
T644C 000:473.318 - 0.016ms returns 0
T644C 000:473.329 JLINK_WriteReg(PSP, 0x20008000)
T644C 000:473.340 - 0.016ms returns 0
T644C 000:473.351 JLINK_WriteReg(CFBP, 0x00000000)
T644C 000:473.362 - 0.016ms returns 0
T644C 000:473.373 JLINK_SetBPEx(Addr = 0x20000000, Type = 0xFFFFFFF2)
T644C 000:473.385 - 0.017ms returns 0x00000008
T644C 000:473.397 JLINK_Go()
T644C 000:473.412   CPU_ReadMem(4 bytes @ 0xE0001000)
T644C 000:479.572 - 6.193ms
T644C 000:479.597 JLINK_IsHalted()
T644C 000:484.804   CPU_ReadMem(2 bytes @ 0x20000000)
T644C 000:485.754 - 6.162ms returns TRUE
T644C 000:485.767 JLINK_ReadReg(R15 (PC))
T644C 000:485.779 - 0.017ms returns 0x20000000
T644C 000:485.791 JLINK_ClrBPEx(BPHandle = 0x00000008)
T644C 000:485.802 - 0.016ms returns 0x00
T644C 000:485.814 JLINK_ReadReg(R0)
T644C 000:485.825 - 0.016ms returns 0x00000001
T644C 000:485.837 JLINK_HasError()
T644C 000:485.848 JLINK_WriteReg(R0, 0x0202D000)
T644C 000:485.859 - 0.016ms returns 0
T644C 000:485.871 JLINK_WriteReg(R1, 0x00001000)
T644C 000:485.882 - 0.016ms returns 0
T644C 000:485.893 JLINK_WriteReg(R2, 0x000000FF)
T644C 000:485.904 - 0.016ms returns 0
T644C 000:485.916 JLINK_WriteReg(R3, 0x00000000)
T644C 000:485.927 - 0.016ms returns 0
T644C 000:485.938 JLINK_WriteReg(R4, 0x00000000)
T644C 000:485.949 - 0.016ms returns 0
T644C 000:485.960 JLINK_WriteReg(R5, 0x00000000)
T644C 000:485.971 - 0.016ms returns 0
T644C 000:485.983 JLINK_WriteReg(R6, 0x00000000)
T644C 000:485.993 - 0.016ms returns 0
T644C 000:486.005 JLINK_WriteReg(R7, 0x00000000)
T644C 000:486.016 - 0.016ms returns 0
T644C 000:486.027 JLINK_WriteReg(R8, 0x00000000)
T644C 000:486.038 - 0.016ms returns 0
T644C 000:486.049 JLINK_WriteReg(R9, 0x2000009C)
T644C 000:486.060 - 0.016ms returns 0
T644C 000:486.071 JLINK_WriteReg(R10, 0x00000000)
T644C 000:486.082 - 0.016ms returns 0
T644C 000:486.094 JLINK_WriteReg(R11, 0x00000000)
T644C 000:486.104 - 0.016ms returns 0
T644C 000:486.116 JLINK_WriteReg(R12, 0x00000000)
T644C 000:486.164 - 0.055ms returns 0
T644C 000:486.177 JLINK_WriteReg(R13 (SP), 0x20008000)
T644C 000:486.188 - 0.016ms returns 0
T644C 000:486.200 JLINK_WriteReg(R14, 0x20000001)
T644C 000:486.211 - 0.016ms returns 0
T644C 000:486.222 JLINK_WriteReg(R15 (PC), 0x2000007A)
T644C 000:486.233 - 0.016ms returns 0
T644C 000:486.244 JLINK_WriteReg(XPSR, 0x01000000)
T644C 000:486.255 - 0.016ms returns 0
T644C 000:486.267 JLINK_WriteReg(MSP, 0x20008000)
T644C 000:486.278 - 0.016ms returns 0
T644C 000:486.289 JLINK_WriteReg(PSP, 0x20008000)
T644C 000:486.300 - 0.016ms returns 0
T644C 000:486.311 JLINK_WriteReg(CFBP, 0x00000000)
T644C 000:486.322 - 0.016ms returns 0
T644C 000:486.334 JLINK_SetBPEx(Addr = 0x20000000, Type = 0xFFFFFFF2)
T644C 000:486.345 - 0.016ms returns 0x00000009
T644C 000:486.356 JLINK_Go()
T644C 000:486.370   CPU_ReadMem(4 bytes @ 0xE0001000)
T644C 000:492.453 - 6.113ms
T644C 000:492.480 JLINK_IsHalted()
T644C 000:497.621   CPU_ReadMem(2 bytes @ 0x20000000)
T644C 000:498.449 - 5.980ms returns TRUE
T644C 000:498.470 JLINK_ReadReg(R15 (PC))
T644C 000:498.483 - 0.017ms returns 0x20000000
T644C 000:498.517 JLINK_ClrBPEx(BPHandle = 0x00000009)
T644C 000:498.529 - 0.017ms returns 0x00
T644C 000:498.540 JLINK_ReadReg(R0)
T644C 000:498.551 - 0.016ms returns 0x00000000
T644C 000:498.889 JLINK_HasError()
T644C 000:498.904 JLINK_WriteReg(R0, 0x0202E000)
T644C 000:498.916 - 0.017ms returns 0
T644C 000:498.927 JLINK_WriteReg(R1, 0x00001000)
T644C 000:498.938 - 0.016ms returns 0
T644C 000:498.950 JLINK_WriteReg(R2, 0x000000FF)
T644C 000:498.961 - 0.016ms returns 0
T644C 000:498.972 JLINK_WriteReg(R3, 0x00000000)
T644C 000:498.983 - 0.016ms returns 0
T644C 000:498.994 JLINK_WriteReg(R4, 0x00000000)
T644C 000:499.005 - 0.016ms returns 0
T644C 000:499.017 JLINK_WriteReg(R5, 0x00000000)
T644C 000:499.028 - 0.016ms returns 0
T644C 000:499.039 JLINK_WriteReg(R6, 0x00000000)
T644C 000:499.050 - 0.016ms returns 0
T644C 000:499.061 JLINK_WriteReg(R7, 0x00000000)
T644C 000:499.072 - 0.016ms returns 0
T644C 000:499.084 JLINK_WriteReg(R8, 0x00000000)
T644C 000:499.095 - 0.016ms returns 0
T644C 000:499.106 JLINK_WriteReg(R9, 0x2000009C)
T644C 000:499.117 - 0.016ms returns 0
T644C 000:499.128 JLINK_WriteReg(R10, 0x00000000)
T644C 000:499.139 - 0.016ms returns 0
T644C 000:499.151 JLINK_WriteReg(R11, 0x00000000)
T644C 000:499.162 - 0.016ms returns 0
T644C 000:499.173 JLINK_WriteReg(R12, 0x00000000)
T644C 000:499.184 - 0.016ms returns 0
T644C 000:499.195 JLINK_WriteReg(R13 (SP), 0x20008000)
T644C 000:499.206 - 0.016ms returns 0
T644C 000:499.218 JLINK_WriteReg(R14, 0x20000001)
T644C 000:499.229 - 0.016ms returns 0
T644C 000:499.240 JLINK_WriteReg(R15 (PC), 0x20000020)
T644C 000:499.251 - 0.016ms returns 0
T644C 000:499.263 JLINK_WriteReg(XPSR, 0x01000000)
T644C 000:499.274 - 0.016ms returns 0
T644C 000:499.285 JLINK_WriteReg(MSP, 0x20008000)
T644C 000:499.296 - 0.016ms returns 0
T644C 000:499.307 JLINK_WriteReg(PSP, 0x20008000)
T644C 000:499.318 - 0.016ms returns 0
T644C 000:499.330 JLINK_WriteReg(CFBP, 0x00000000)
T644C 000:499.341 - 0.016ms returns 0
T644C 000:499.352 JLINK_SetBPEx(Addr = 0x20000000, Type = 0xFFFFFFF2)
T644C 000:499.363 - 0.016ms returns 0x0000000A
T644C 000:499.375 JLINK_Go()
T644C 000:499.391   CPU_ReadMem(4 bytes @ 0xE0001000)
T644C 000:505.402 - 6.042ms
T644C 000:505.425 JLINK_IsHalted()
T644C 000:510.594   CPU_ReadMem(2 bytes @ 0x20000000)
T644C 000:511.470 - 6.051ms returns TRUE
T644C 000:511.483 JLINK_ReadReg(R15 (PC))
T644C 000:511.496 - 0.018ms returns 0x20000000
T644C 000:511.508 JLINK_ClrBPEx(BPHandle = 0x0000000A)
T644C 000:511.519 - 0.016ms returns 0x00
T644C 000:511.531 JLINK_ReadReg(R0)
T644C 000:511.542 - 0.016ms returns 0x00000001
T644C 000:511.554 JLINK_HasError()
T644C 000:511.566 JLINK_WriteReg(R0, 0x0202E000)
T644C 000:511.577 - 0.016ms returns 0
T644C 000:511.589 JLINK_WriteReg(R1, 0x00001000)
T644C 000:511.600 - 0.016ms returns 0
T644C 000:511.611 JLINK_WriteReg(R2, 0x000000FF)
T644C 000:511.622 - 0.016ms returns 0
T644C 000:511.637 JLINK_WriteReg(R3, 0x00000000)
T644C 000:511.650 - 0.018ms returns 0
T644C 000:511.661 JLINK_WriteReg(R4, 0x00000000)
T644C 000:511.672 - 0.016ms returns 0
T644C 000:511.683 JLINK_WriteReg(R5, 0x00000000)
T644C 000:511.694 - 0.016ms returns 0
T644C 000:511.706 JLINK_WriteReg(R6, 0x00000000)
T644C 000:511.716 - 0.016ms returns 0
T644C 000:511.728 JLINK_WriteReg(R7, 0x00000000)
T644C 000:511.739 - 0.016ms returns 0
T644C 000:511.750 JLINK_WriteReg(R8, 0x00000000)
T644C 000:511.761 - 0.016ms returns 0
T644C 000:511.772 JLINK_WriteReg(R9, 0x2000009C)
T644C 000:511.783 - 0.016ms returns 0
T644C 000:511.794 JLINK_WriteReg(R10, 0x00000000)
T644C 000:511.806 - 0.016ms returns 0
T644C 000:511.817 JLINK_WriteReg(R11, 0x00000000)
T644C 000:511.828 - 0.016ms returns 0
T644C 000:511.839 JLINK_WriteReg(R12, 0x00000000)
T644C 000:511.850 - 0.016ms returns 0
T644C 000:511.862 JLINK_WriteReg(R13 (SP), 0x20008000)
T644C 000:511.873 - 0.016ms returns 0
T644C 000:511.884 JLINK_WriteReg(R14, 0x20000001)
T644C 000:511.895 - 0.016ms returns 0
T644C 000:511.907 JLINK_WriteReg(R15 (PC), 0x2000007A)
T644C 000:511.917 - 0.016ms returns 0
T644C 000:511.929 JLINK_WriteReg(XPSR, 0x01000000)
T644C 000:511.940 - 0.016ms returns 0
T644C 000:511.951 JLINK_WriteReg(MSP, 0x20008000)
T644C 000:511.962 - 0.016ms returns 0
T644C 000:511.974 JLINK_WriteReg(PSP, 0x20008000)
T644C 000:511.985 - 0.016ms returns 0
T644C 000:511.996 JLINK_WriteReg(CFBP, 0x00000000)
T644C 000:512.007 - 0.016ms returns 0
T644C 000:512.018 JLINK_SetBPEx(Addr = 0x20000000, Type = 0xFFFFFFF2)
T644C 000:512.030 - 0.016ms returns 0x0000000B
T644C 000:512.041 JLINK_Go()
T644C 000:512.055   CPU_ReadMem(4 bytes @ 0xE0001000)
T644C 000:518.126 - 6.092ms
T644C 000:518.140 JLINK_IsHalted()
T644C 000:523.181   CPU_ReadMem(2 bytes @ 0x20000000)
T644C 000:523.999 - 5.870ms returns TRUE
T644C 000:524.021 JLINK_ReadReg(R15 (PC))
T644C 000:524.034 - 0.018ms returns 0x20000000
T644C 000:524.046 JLINK_ClrBPEx(BPHandle = 0x0000000B)
T644C 000:524.058 - 0.016ms returns 0x00
T644C 000:524.070 JLINK_ReadReg(R0)
T644C 000:524.081 - 0.016ms returns 0x00000000
T644C 000:524.443 JLINK_HasError()
T644C 000:524.459 JLINK_WriteReg(R0, 0x0202F000)
T644C 000:524.471 - 0.017ms returns 0
T644C 000:524.483 JLINK_WriteReg(R1, 0x00001000)
T644C 000:524.494 - 0.016ms returns 0
T644C 000:524.505 JLINK_WriteReg(R2, 0x000000FF)
T644C 000:524.516 - 0.016ms returns 0
T644C 000:524.527 JLINK_WriteReg(R3, 0x00000000)
T644C 000:524.538 - 0.016ms returns 0
T644C 000:524.549 JLINK_WriteReg(R4, 0x00000000)
T644C 000:524.560 - 0.016ms returns 0
T644C 000:524.571 JLINK_WriteReg(R5, 0x00000000)
T644C 000:524.582 - 0.016ms returns 0
T644C 000:524.593 JLINK_WriteReg(R6, 0x00000000)
T644C 000:524.604 - 0.016ms returns 0
T644C 000:524.616 JLINK_WriteReg(R7, 0x00000000)
T644C 000:524.626 - 0.016ms returns 0
T644C 000:524.638 JLINK_WriteReg(R8, 0x00000000)
T644C 000:524.649 - 0.016ms returns 0
T644C 000:524.660 JLINK_WriteReg(R9, 0x2000009C)
T644C 000:524.671 - 0.016ms returns 0
T644C 000:524.682 JLINK_WriteReg(R10, 0x00000000)
T644C 000:524.693 - 0.016ms returns 0
T644C 000:524.704 JLINK_WriteReg(R11, 0x00000000)
T644C 000:524.715 - 0.016ms returns 0
T644C 000:524.726 JLINK_WriteReg(R12, 0x00000000)
T644C 000:524.737 - 0.016ms returns 0
T644C 000:524.748 JLINK_WriteReg(R13 (SP), 0x20008000)
T644C 000:524.775 - 0.032ms returns 0
T644C 000:524.787 JLINK_WriteReg(R14, 0x20000001)
T644C 000:524.798 - 0.016ms returns 0
T644C 000:524.809 JLINK_WriteReg(R15 (PC), 0x20000020)
T644C 000:524.820 - 0.016ms returns 0
T644C 000:524.832 JLINK_WriteReg(XPSR, 0x01000000)
T644C 000:524.843 - 0.016ms returns 0
T644C 000:524.855 JLINK_WriteReg(MSP, 0x20008000)
T644C 000:524.866 - 0.016ms returns 0
T644C 000:524.877 JLINK_WriteReg(PSP, 0x20008000)
T644C 000:524.888 - 0.016ms returns 0
T644C 000:524.899 JLINK_WriteReg(CFBP, 0x00000000)
T644C 000:524.910 - 0.016ms returns 0
T644C 000:524.922 JLINK_SetBPEx(Addr = 0x20000000, Type = 0xFFFFFFF2)
T644C 000:524.936 - 0.020ms returns 0x0000000C
T644C 000:524.949 JLINK_Go()
T644C 000:524.964   CPU_ReadMem(4 bytes @ 0xE0001000)
T644C 000:530.870 - 5.937ms
T644C 000:530.894 JLINK_IsHalted()
T644C 000:536.093   CPU_ReadMem(2 bytes @ 0x20000000)
T644C 000:536.977 - 6.089ms returns TRUE
T644C 000:536.990 JLINK_ReadReg(R15 (PC))
T644C 000:537.002 - 0.017ms returns 0x20000000
T644C 000:537.013 JLINK_ClrBPEx(BPHandle = 0x0000000C)
T644C 000:537.024 - 0.016ms returns 0x00
T644C 000:537.036 JLINK_ReadReg(R0)
T644C 000:537.047 - 0.016ms returns 0x00000001
T644C 000:537.059 JLINK_HasError()
T644C 000:537.070 JLINK_WriteReg(R0, 0x0202F000)
T644C 000:537.081 - 0.016ms returns 0
T644C 000:537.093 JLINK_WriteReg(R1, 0x00001000)
T644C 000:537.104 - 0.016ms returns 0
T644C 000:537.115 JLINK_WriteReg(R2, 0x000000FF)
T644C 000:537.126 - 0.016ms returns 0
T644C 000:537.137 JLINK_WriteReg(R3, 0x00000000)
T644C 000:537.148 - 0.016ms returns 0
T644C 000:537.159 JLINK_WriteReg(R4, 0x00000000)
T644C 000:537.170 - 0.016ms returns 0
T644C 000:537.182 JLINK_WriteReg(R5, 0x00000000)
T644C 000:537.193 - 0.016ms returns 0
T644C 000:537.204 JLINK_WriteReg(R6, 0x00000000)
T644C 000:537.215 - 0.016ms returns 0
T644C 000:537.226 JLINK_WriteReg(R7, 0x00000000)
T644C 000:537.237 - 0.016ms returns 0
T644C 000:537.249 JLINK_WriteReg(R8, 0x00000000)
T644C 000:537.260 - 0.016ms returns 0
T644C 000:537.271 JLINK_WriteReg(R9, 0x2000009C)
T644C 000:537.282 - 0.016ms returns 0
T644C 000:537.293 JLINK_WriteReg(R10, 0x00000000)
T644C 000:537.304 - 0.016ms returns 0
T644C 000:537.315 JLINK_WriteReg(R11, 0x00000000)
T644C 000:537.326 - 0.016ms returns 0
T644C 000:537.337 JLINK_WriteReg(R12, 0x00000000)
T644C 000:537.348 - 0.016ms returns 0
T644C 000:537.359 JLINK_WriteReg(R13 (SP), 0x20008000)
T644C 000:537.370 - 0.016ms returns 0
T644C 000:537.382 JLINK_WriteReg(R14, 0x20000001)
T644C 000:537.393 - 0.016ms returns 0
T644C 000:537.404 JLINK_WriteReg(R15 (PC), 0x2000007A)
T644C 000:537.415 - 0.016ms returns 0
T644C 000:537.427 JLINK_WriteReg(XPSR, 0x01000000)
T644C 000:537.438 - 0.016ms returns 0
T644C 000:537.449 JLINK_WriteReg(MSP, 0x20008000)
T644C 000:537.460 - 0.016ms returns 0
T644C 000:537.471 JLINK_WriteReg(PSP, 0x20008000)
T644C 000:537.482 - 0.016ms returns 0
T644C 000:537.493 JLINK_WriteReg(CFBP, 0x00000000)
T644C 000:537.504 - 0.016ms returns 0
T644C 000:537.515 JLINK_SetBPEx(Addr = 0x20000000, Type = 0xFFFFFFF2)
T644C 000:537.527 - 0.016ms returns 0x0000000D
T644C 000:537.538 JLINK_Go()
T644C 000:537.552   CPU_ReadMem(4 bytes @ 0xE0001000)
T644C 000:543.631 - 6.104ms
T644C 000:543.650 JLINK_IsHalted()
T644C 000:548.873   CPU_ReadMem(2 bytes @ 0x20000000)
T644C 000:549.767 - 6.144ms returns TRUE
T644C 000:549.806 JLINK_ReadReg(R15 (PC))
T644C 000:549.818 - 0.017ms returns 0x20000000
T644C 000:549.854 JLINK_ClrBPEx(BPHandle = 0x0000000D)
T644C 000:549.866 - 0.017ms returns 0x00
T644C 000:549.877 JLINK_ReadReg(R0)
T644C 000:549.888 - 0.016ms returns 0x00000000
T644C 000:550.137 JLINK_HasError()
T644C 000:550.152 JLINK_WriteReg(R0, 0x00000001)
T644C 000:550.163 - 0.017ms returns 0
T644C 000:550.175 JLINK_WriteReg(R1, 0x00001000)
T644C 000:550.186 - 0.016ms returns 0
T644C 000:550.197 JLINK_WriteReg(R2, 0x000000FF)
T644C 000:550.208 - 0.016ms returns 0
T644C 000:550.219 JLINK_WriteReg(R3, 0x00000000)
T644C 000:550.230 - 0.016ms returns 0
T644C 000:550.242 JLINK_WriteReg(R4, 0x00000000)
T644C 000:550.253 - 0.016ms returns 0
T644C 000:550.264 JLINK_WriteReg(R5, 0x00000000)
T644C 000:550.275 - 0.016ms returns 0
T644C 000:550.286 JLINK_WriteReg(R6, 0x00000000)
T644C 000:550.297 - 0.016ms returns 0
T644C 000:550.308 JLINK_WriteReg(R7, 0x00000000)
T644C 000:550.319 - 0.016ms returns 0
T644C 000:550.330 JLINK_WriteReg(R8, 0x00000000)
T644C 000:550.341 - 0.016ms returns 0
T644C 000:550.352 JLINK_WriteReg(R9, 0x2000009C)
T644C 000:550.363 - 0.016ms returns 0
T644C 000:550.374 JLINK_WriteReg(R10, 0x00000000)
T644C 000:550.385 - 0.016ms returns 0
T644C 000:550.397 JLINK_WriteReg(R11, 0x00000000)
T644C 000:550.410 - 0.020ms returns 0
T644C 000:550.423 JLINK_WriteReg(R12, 0x00000000)
T644C 000:550.434 - 0.016ms returns 0
T644C 000:550.445 JLINK_WriteReg(R13 (SP), 0x20008000)
T644C 000:550.457 - 0.016ms returns 0
T644C 000:550.468 JLINK_WriteReg(R14, 0x20000001)
T644C 000:550.479 - 0.016ms returns 0
T644C 000:550.490 JLINK_WriteReg(R15 (PC), 0x20000076)
T644C 000:550.758 - 0.272ms returns 0
T644C 000:550.769 JLINK_WriteReg(XPSR, 0x01000000)
T644C 000:550.781 - 0.016ms returns 0
T644C 000:550.792 JLINK_WriteReg(MSP, 0x20008000)
T644C 000:550.803 - 0.016ms returns 0
T644C 000:550.814 JLINK_WriteReg(PSP, 0x20008000)
T644C 000:550.825 - 0.016ms returns 0
T644C 000:550.837 JLINK_WriteReg(CFBP, 0x00000000)
T644C 000:550.848 - 0.016ms returns 0
T644C 000:550.859 JLINK_SetBPEx(Addr = 0x20000000, Type = 0xFFFFFFF2)
T644C 000:550.871 - 0.016ms returns 0x0000000E
T644C 000:550.882 JLINK_Go()
T644C 000:550.898   CPU_ReadMem(4 bytes @ 0xE0001000)
T644C 000:556.775 - 5.921ms
T644C 000:556.812 JLINK_IsHalted()
T644C 000:562.148   CPU_ReadMem(2 bytes @ 0x20000000)
T644C 000:563.015 - 6.210ms returns TRUE
T644C 000:563.029 JLINK_ReadReg(R15 (PC))
T644C 000:563.042 - 0.018ms returns 0x20000000
T644C 000:563.054 JLINK_ClrBPEx(BPHandle = 0x0000000E)
T644C 000:563.065 - 0.016ms returns 0x00
T644C 000:563.076 JLINK_ReadReg(R0)
T644C 000:563.087 - 0.016ms returns 0x00000000
T644C 000:618.714 JLINK_WriteMem(0x20000000, 0xA0 Bytes, ...)
T644C 000:618.742   Data:  00 BE 0A E0 0D 78 2D 06 68 40 08 24 40 00 00 D3 ...
T644C 000:618.771   CPU_WriteMem(160 bytes @ 0x20000000)
T644C 000:621.282 - 2.582ms returns 0xA0
T644C 000:621.324 JLINK_HasError()
T644C 000:621.338 JLINK_WriteReg(R0, 0x02000000)
T644C 000:621.352 - 0.019ms returns 0
T644C 000:621.363 JLINK_WriteReg(R1, 0x00C35000)
T644C 000:621.375 - 0.016ms returns 0
T644C 000:621.386 JLINK_WriteReg(R2, 0x00000002)
T644C 000:621.397 - 0.016ms returns 0
T644C 000:621.409 JLINK_WriteReg(R3, 0x00000000)
T644C 000:621.420 - 0.016ms returns 0
T644C 000:621.431 JLINK_WriteReg(R4, 0x00000000)
T644C 000:621.442 - 0.016ms returns 0
T644C 000:621.453 JLINK_WriteReg(R5, 0x00000000)
T644C 000:621.464 - 0.016ms returns 0
T644C 000:621.475 JLINK_WriteReg(R6, 0x00000000)
T644C 000:621.486 - 0.016ms returns 0
T644C 000:621.498 JLINK_WriteReg(R7, 0x00000000)
T644C 000:621.509 - 0.016ms returns 0
T644C 000:621.520 JLINK_WriteReg(R8, 0x00000000)
T644C 000:621.531 - 0.016ms returns 0
T644C 000:621.542 JLINK_WriteReg(R9, 0x2000009C)
T644C 000:621.553 - 0.016ms returns 0
T644C 000:621.565 JLINK_WriteReg(R10, 0x00000000)
T644C 000:621.576 - 0.016ms returns 0
T644C 000:621.587 JLINK_WriteReg(R11, 0x00000000)
T644C 000:621.598 - 0.016ms returns 0
T644C 000:621.609 JLINK_WriteReg(R12, 0x00000000)
T644C 000:621.620 - 0.016ms returns 0
T644C 000:621.632 JLINK_WriteReg(R13 (SP), 0x20008000)
T644C 000:621.644 - 0.017ms returns 0
T644C 000:621.655 JLINK_WriteReg(R14, 0x20000001)
T644C 000:621.666 - 0.016ms returns 0
T644C 000:621.677 JLINK_WriteReg(R15 (PC), 0x2000006C)
T644C 000:621.688 - 0.016ms returns 0
T644C 000:621.699 JLINK_WriteReg(XPSR, 0x01000000)
T644C 000:621.711 - 0.016ms returns 0
T644C 000:621.722 JLINK_WriteReg(MSP, 0x20008000)
T644C 000:621.733 - 0.016ms returns 0
T644C 000:621.744 JLINK_WriteReg(PSP, 0x20008000)
T644C 000:621.755 - 0.016ms returns 0
T644C 000:621.766 JLINK_WriteReg(CFBP, 0x00000000)
T644C 000:621.777 - 0.016ms returns 0
T644C 000:621.788 JLINK_SetBPEx(Addr = 0x20000000, Type = 0xFFFFFFF2)
T644C 000:621.806   CPU_ReadMem(4 bytes @ 0x20000000)
T644C 000:622.680   CPU_WriteMem(4 bytes @ 0x20000000)
T644C 000:623.564   CPU_ReadMem(4 bytes @ 0x20000000)
T644C 000:624.422   CPU_WriteMem(4 bytes @ 0x20000000)
T644C 000:625.202   CPU_ReadMem(2 bytes @ 0x20000000)
T644C 000:626.086 - 4.310ms returns 0x0000000F
T644C 000:626.111 JLINK_Go()
T644C 000:626.126   CPU_WriteMem(2 bytes @ 0x20000000)
T644C 000:627.009   CPU_ReadMem(4 bytes @ 0xE0001000)
T644C 000:633.126 - 7.038ms
T644C 000:633.161 JLINK_IsHalted()
T644C 000:638.498   CPU_ReadMem(2 bytes @ 0x20000000)
T644C 000:639.461 - 6.312ms returns TRUE
T644C 000:639.485 JLINK_ReadReg(R15 (PC))
T644C 000:639.498 - 0.018ms returns 0x20000000
T644C 000:639.510 JLINK_ClrBPEx(BPHandle = 0x0000000F)
T644C 000:639.521 - 0.016ms returns 0x00
T644C 000:639.533 JLINK_ReadReg(R0)
T644C 000:639.544 - 0.016ms returns 0x00000000
T644C 000:639.799 JLINK_WriteMem(0x200000A0, 0x360 Bytes, ...)
T644C 000:639.813   Data:  00 00 00 00 5D A8 02 02 6D A8 02 02 6D A8 02 02 ...
T644C 000:639.838   CPU_WriteMem(864 bytes @ 0x200000A0)
T644C 000:648.987 - 9.219ms returns 0x360
T644C 000:649.030 JLINK_WriteMem(0x20000400, 0x400 Bytes, ...)
T644C 000:649.041   Data:  13 68 4F F0 FF 30 98 61 07 98 00 7B 00 06 1F 30 ...
T644C 000:649.070   CPU_WriteMem(1024 bytes @ 0x20000400)
T644C 000:659.711 - 10.688ms returns 0x400
T644C 000:659.724 JLINK_WriteMem(0x20000800, 0x400 Bytes, ...)
T644C 000:659.735   Data:  80 B5 C2 B0 08 21 C4 F2 00 01 08 68 20 F0 02 00 ...
T644C 000:659.754   CPU_WriteMem(1024 bytes @ 0x20000800)
T644C 000:670.495 - 10.785ms returns 0x400
T644C 000:670.521 JLINK_WriteMem(0x20000C00, 0x400 Bytes, ...)
T644C 000:670.533   Data:  B8 F1 00 0F 03 DA 00 20 01 46 BD E8 F0 8D 00 20 ...
T644C 000:670.554   CPU_WriteMem(1024 bytes @ 0x20000C00)
T644C 000:681.191 - 10.683ms returns 0x400
T644C 000:681.215 JLINK_WriteMem(0x20001000, 0xA0 Bytes, ...)
T644C 000:681.226   Data:  9D F8 1F 10 45 F2 00 00 C4 F2 01 00 14 29 C4 BF ...
T644C 000:681.245   CPU_WriteMem(160 bytes @ 0x20001000)
T644C 000:683.853 - 2.645ms returns 0xA0
T644C 000:683.870 JLINK_HasError()
T644C 000:683.883 JLINK_WriteReg(R0, 0x0202A000)
T644C 000:683.896 - 0.018ms returns 0
T644C 000:683.909 JLINK_WriteReg(R1, 0x00001000)
T644C 000:683.920 - 0.016ms returns 0
T644C 000:683.932 JLINK_WriteReg(R2, 0x200000A0)
T644C 000:683.943 - 0.016ms returns 0
